#   Hz   S  RI   R   50
!
0.000000e+00 9.934437e-01 0.000000e+00 4.845193e-03 0.000000e+00 4.845193e-03 0.000000e+00 9.938202e-01 0.000000e+00
3.000000e+09 8.950184e-01 -3.050842e-01 1.004336e-01 2.875891e-01 1.004336e-01 2.875891e-01 8.989673e-01 -2.943259e-01
6.000000e+09 6.877765e-01 -4.751093e-01 3.016689e-01 4.439619e-01 3.016689e-01 4.439619e-01 6.992462e-01 -4.584965e-01
9.000000e+09 4.924006e-01 -5.217024e-01 4.913016e-01 4.804158e-01 4.913016e-01 4.804158e-01 5.109576e-01 -5.037167e-01
1.200000e+10 3.479815e-01 -5.074509e-01 6.313530e-01 4.577587e-01 6.313530e-01 4.577587e-01 3.717728e-01 -4.903015e-01
1.500000e+10 2.485717e-01 -4.725104e-01 7.276013e-01 4.150049e-01 7.276013e-01 4.150049e-01 2.759603e-01 -4.569483e-01
1.800000e+10 1.805145e-01 -4.342081e-01 7.933148e-01 3.689896e-01 7.933148e-01 3.689896e-01 2.103596e-01 -4.203553e-01
2.100000e+10 1.330589e-01 -3.986965e-01 8.389389e-01 3.256912e-01 8.389389e-01 3.256912e-01 1.646096e-01 -3.864514e-01
2.400000e+10 9.911138e-02 -3.676486e-01 8.713654e-01 2.867361e-01 8.713654e-01 2.867361e-01 1.318746e-01 -3.568489e-01
2.700000e+10 7.417555e-02 -3.411084e-01 8.949628e-01 2.521678e-01 8.949628e-01 2.521678e-01 1.078214e-01 -3.315901e-01
3.000000e+10 5.539401e-02 -3.185991e-01 9.125074e-01 2.215243e-01 9.125074e-01 2.215243e-01 8.969637e-02 -3.102156e-01
3.300000e+10 4.091823e-02 -2.995360e-01 9.257954e-01 1.942381e-01 9.257954e-01 1.942381e-01 7.571810e-02 -2.921618e-01
3.600000e+10 2.952479e-02 -2.833691e-01 9.360154e-01 1.697762e-01 9.360154e-01 1.697762e-01 6.470762e-02 -2.768987e-01
3.900000e+10 2.038471e-02 -2.696247e-01 9.439731e-01 1.476788e-01 9.439731e-01 1.476788e-01 5.586604e-02 -2.639697e-01
4.200000e+10 1.292330e-02 -2.579085e-01 9.502270e-01 1.275640e-01 9.502270e-01 1.275640e-01 4.863953e-02 -2.529948e-01
4.500000e+10 6.733614e-03 -2.478968e-01 9.551726e-01 1.091182e-01 9.551726e-01 1.091182e-01 4.263595e-02 -2.436621e-01
4.800000e+10 1.521814e-03 -2.393253e-01 9.590958e-01 9.208555e-02 9.590958e-01 9.208555e-02 3.757212e-02 -2.357168e-01
5.100000e+10 -2.928102e-03 -2.319776e-01 9.622066e-01 7.625664e-02 9.622066e-01 7.625664e-02 3.323990e-02 -2.289504e-01
5.400000e+10 -6.777514e-03 -2.256761e-01 9.646619e-01 6.145982e-02 9.646619e-01 6.145982e-02 2.948378e-02 -2.231916e-01
5.700000e+10 -1.014879e-02 -2.202742e-01 9.665811e-01 4.755355e-02 9.665811e-01 4.755355e-02 2.618584e-02 -2.182991e-01
6.000000e+10 -1.313598e-02 -2.156503e-01 9.680557e-01 3.442049e-02 9.680557e-01 3.442049e-02 2.325545e-02 -2.141557e-01
6.300000e+10 -1.581227e-02 -2.117026e-01 9.691571e-01 2.196278e-02 9.691571e-01 2.196278e-02 2.062211e-02 -2.106633e-01
6.600000e+10 -1.823523e-02 -2.083458e-01 9.699417e-01 1.009836e-02 9.699417e-01 1.009836e-02 1.823034e-02 -2.077397e-01
6.900000e+10 -2.045065e-02 -2.055079e-01 9.704541e-01 -1.242009e-03 9.704541e-01 -1.242009e-03 1.603602e-02 -2.053154e-01
7.200000e+10 -2.249528e-02 -2.031274e-01 9.707305e-01 -1.211705e-02 9.707305e-01 -1.211705e-02 1.400375e-02 -2.033311e-01
7.500000e+10 -2.439886e-02 -2.011519e-01 9.708001e-01 -2.257683e-02 9.708001e-01 -2.257683e-02 1.210489e-02 -2.017364e-01
7.800000e+10 -2.618566e-02 -1.995365e-01 9.706868e-01 -3.266429e-02 9.706868e-01 -3.266429e-02 1.031605e-02 -2.004878e-01
8.100000e+10 -2.787565e-02 -1.982421e-01 9.704104e-01 -4.241637e-02 9.704104e-01 -4.241637e-02 8.618011e-03 -1.995478e-01
8.400000e+10 -2.948535e-02 -1.972351e-01 9.699874e-01 -5.186505e-02 9.699874e-01 -5.186505e-02 6.994864e-03 -1.988839e-01
8.700000e+10 -3.102852e-02 -1.964860e-01 9.694315e-01 -6.103811e-02 9.694315e-01 -6.103811e-02 5.433363e-03 -1.984675e-01
9.000000e+10 -3.251669e-02 -1.959690e-01 9.687543e-01 -6.995978e-02 9.687543e-01 -6.995978e-02 3.922414e-03 -1.982740e-01
9.300000e+10 -3.395957e-02 -1.956615e-01 9.679658e-01 -7.865127e-02 9.679658e-01 -7.865127e-02 2.452675e-03 -1.982813e-01
9.600000e+10 -3.536537e-02 -1.955435e-01 9.670743e-01 -8.713122e-02 9.670743e-01 -8.713122e-02 1.016244e-03 -1.984703e-01
9.900000e+10 -3.674108e-02 -1.955973e-01 9.660872e-01 -9.541607e-02 9.660872e-01 -9.541607e-02 -3.935974e-04 -1.988238e-01
1.020000e+11 -3.809266e-02 -1.958070e-01 9.650105e-01 -1.035204e-01 9.650105e-01 -1.035204e-01 -1.782580e-03 -1.993265e-01
1.050000e+11 -3.942524e-02 -1.961587e-01 9.638499e-01 -1.114570e-01 9.638499e-01 -1.114570e-01 -3.155611e-03 -1.999650e-01
1.080000e+11 -4.074320e-02 -1.966398e-01 9.626100e-01 -1.192374e-01 9.626100e-01 -1.192374e-01 -4.516911e-03 -2.007270e-01
1.110000e+11 -4.205033e-02 -1.972389e-01 9.612950e-01 -1.268719e-01 9.612950e-01 -1.268719e-01 -5.870113e-03 -2.016016e-01
1.140000e+11 -4.334992e-02 -1.979459e-01 9.599087e-01 -1.343695e-01 9.599087e-01 -1.343695e-01 -7.218359e-03 -2.025791e-01
1.170000e+11 -4.464480e-02 -1.987516e-01 9.584543e-01 -1.417386e-01 9.584543e-01 -1.417386e-01 -8.564371e-03 -2.036505e-01
1.200000e+11 -4.593745e-02 -1.996476e-01 9.569347e-01 -1.489864e-01 9.569347e-01 -1.489864e-01 -9.910509e-03 -2.048078e-01
1.230000e+11 -4.723001e-02 -2.006265e-01 9.553527e-01 -1.561196e-01 9.553527e-01 -1.561196e-01 -1.125883e-02 -2.060436e-01
1.260000e+11 -4.852437e-02 -2.016813e-01 9.537105e-01 -1.631443e-01 9.537105e-01 -1.631443e-01 -1.261111e-02 -2.073514e-01
1.290000e+11 -4.982215e-02 -2.028059e-01 9.520103e-01 -1.700657e-01 9.520103e-01 -1.700657e-01 -1.396891e-02 -2.087251e-01
1.320000e+11 -5.112479e-02 -2.039943e-01 9.502540e-01 -1.768888e-01 9.502540e-01 -1.768888e-01 -1.533359e-02 -2.101591e-01
1.350000e+11 -5.243353e-02 -2.052415e-01 9.484435e-01 -1.836181e-01 9.484435e-01 -1.836181e-01 -1.670632e-02 -2.116483e-01
1.380000e+11 -5.374946e-02 -2.065425e-01 9.465805e-01 -1.902575e-01 9.465805e-01 -1.902575e-01 -1.808814e-02 -2.131881e-01
1.410000e+11 -5.507353e-02 -2.078930e-01 9.446663e-01 -1.968108e-01 9.446663e-01 -1.968108e-01 -1.947995e-02 -2.147741e-01
1.440000e+11 -5.640657e-02 -2.092889e-01 9.427026e-01 -2.032814e-01 9.427026e-01 -2.032814e-01 -2.088250e-02 -2.164024e-01
1.470000e+11 -5.774931e-02 -2.107263e-01 9.406904e-01 -2.096721e-01 9.406904e-01 -2.096721e-01 -2.229649e-02 -2.180695e-01
1.500000e+11 -5.910236e-02 -2.122018e-01 9.386312e-01 -2.159860e-01 9.386312e-01 -2.159860e-01 -2.372249e-02 -2.197717e-01
1.530000e+11 -6.046628e-02 -2.137122e-01 9.365260e-01 -2.222255e-01 9.365260e-01 -2.222255e-01 -2.516101e-02 -2.215061e-01
1.560000e+11 -6.184153e-02 -2.152544e-01 9.343760e-01 -2.283929e-01 9.343760e-01 -2.283929e-01 -2.661246e-02 -2.232697e-01
1.590000e+11 -6.322851e-02 -2.168257e-01 9.321821e-01 -2.344904e-01 9.321821e-01 -2.344904e-01 -2.807722e-02 -2.250598e-01
1.620000e+11 -6.462755e-02 -2.184234e-01 9.299454e-01 -2.405200e-01 9.299454e-01 -2.405200e-01 -2.955558e-02 -2.268739e-01
1.650000e+11 -6.603896e-02 -2.200453e-01 9.276667e-01 -2.464835e-01 9.276667e-01 -2.464835e-01 -3.104781e-02 -2.287096e-01
1.680000e+11 -6.746297e-02 -2.216888e-01 9.253471e-01 -2.523826e-01 9.253471e-01 -2.523826e-01 -3.255410e-02 -2.305647e-01
1.710000e+11 -6.889977e-02 -2.233521e-01 9.229873e-01 -2.582188e-01 9.229873e-01 -2.582188e-01 -3.407463e-02 -2.324373e-01
1.740000e+11 -7.034953e-02 -2.250331e-01 9.205882e-01 -2.639935e-01 9.205882e-01 -2.639935e-01 -3.560952e-02 -2.343252e-01
1.770000e+11 -7.181236e-02 -2.267299e-01 9.181505e-01 -2.697080e-01 9.181505e-01 -2.697080e-01 -3.715887e-02 -2.362269e-01
1.800000e+11 -7.328836e-02 -2.284409e-01 9.156751e-01 -2.753636e-01 9.156751e-01 -2.753636e-01 -3.872273e-02 -2.381405e-01
1.830000e+11 -7.477760e-02 -2.301643e-01 9.131627e-01 -2.809613e-01 9.131627e-01 -2.809613e-01 -4.030115e-02 -2.400645e-01
1.860000e+11 -7.628009e-02 -2.318987e-01 9.106140e-01 -2.865023e-01 9.106140e-01 -2.865023e-01 -4.189413e-02 -2.419973e-01
1.890000e+11 -7.779587e-02 -2.336426e-01 9.080298e-01 -2.919875e-01 9.080298e-01 -2.919875e-01 -4.350166e-02 -2.439377e-01
1.920000e+11 -7.932492e-02 -2.353946e-01 9.054107e-01 -2.974177e-01 9.054107e-01 -2.974177e-01 -4.512371e-02 -2.458842e-01
1.950000e+11 -8.086721e-02 -2.371535e-01 9.027574e-01 -3.027938e-01 9.027574e-01 -3.027938e-01 -4.676023e-02 -2.478356e-01
1.980000e+11 -8.242270e-02 -2.389181e-01 9.000706e-01 -3.081166e-01 9.000706e-01 -3.081166e-01 -4.841114e-02 -2.497907e-01
2.010000e+11 -8.399133e-02 -2.406872e-01 8.973509e-01 -3.133868e-01 8.973509e-01 -3.133868e-01 -5.007636e-02 -2.517485e-01
2.040000e+11 -8.557301e-02 -2.424598e-01 8.945990e-01 -3.186051e-01 8.945990e-01 -3.186051e-01 -5.175579e-02 -2.537078e-01
2.070000e+11 -8.716766e-02 -2.442348e-01 8.918154e-01 -3.237721e-01 8.918154e-01 -3.237721e-01 -5.344931e-02 -2.556677e-01
2.100000e+11 -8.877518e-02 -2.460112e-01 8.890009e-01 -3.288884e-01 8.890009e-01 -3.288884e-01 -5.515681e-02 -2.576272e-01
2.130000e+11 -9.039545e-02 -2.477882e-01 8.861560e-01 -3.339546e-01 8.861560e-01 -3.339546e-01 -5.687815e-02 -2.595855e-01
2.160000e+11 -9.202834e-02 -2.495650e-01 8.832814e-01 -3.389711e-01 8.832814e-01 -3.389711e-01 -5.861317e-02 -2.615417e-01
2.190000e+11 -9.367373e-02 -2.513405e-01 8.803775e-01 -3.439385e-01 8.803775e-01 -3.439385e-01 -6.036173e-02 -2.634950e-01
2.220000e+11 -9.533147e-02 -2.531142e-01 8.774451e-01 -3.488572e-01 8.774451e-01 -3.488572e-01 -6.212366e-02 -2.654446e-01
2.250000e+11 -9.700141e-02 -2.548853e-01 8.744846e-01 -3.537277e-01 8.744846e-01 -3.537277e-01 -6.389878e-02 -2.673898e-01
2.280000e+11 -9.868339e-02 -2.566530e-01 8.714968e-01 -3.585503e-01 8.714968e-01 -3.585503e-01 -6.568693e-02 -2.693300e-01
2.310000e+11 -1.003773e-01 -2.584167e-01 8.684820e-01 -3.633254e-01 8.684820e-01 -3.633254e-01 -6.748792e-02 -2.712645e-01
2.340000e+11 -1.020828e-01 -2.601758e-01 8.654410e-01 -3.680534e-01 8.654410e-01 -3.680534e-01 -6.930155e-02 -2.731926e-01
2.370000e+11 -1.037999e-01 -2.619297e-01 8.623742e-01 -3.727347e-01 8.623742e-01 -3.727347e-01 -7.112763e-02 -2.751138e-01
2.400000e+11 -1.055284e-01 -2.636778e-01 8.592822e-01 -3.773696e-01 8.592822e-01 -3.773696e-01 -7.296596e-02 -2.770276e-01
2.430000e+11 -1.072680e-01 -2.654196e-01 8.561656e-01 -3.819584e-01 8.561656e-01 -3.819584e-01 -7.481633e-02 -2.789334e-01
2.460000e+11 -1.090186e-01 -2.671545e-01 8.530249e-01 -3.865014e-01 8.530249e-01 -3.865014e-01 -7.667854e-02 -2.808307e-01
2.490000e+11 -1.107799e-01 -2.688821e-01 8.498606e-01 -3.909989e-01 8.498606e-01 -3.909989e-01 -7.855237e-02 -2.827190e-01
2.520000e+11 -1.125519e-01 -2.706018e-01 8.466733e-01 -3.954511e-01 8.466733e-01 -3.954511e-01 -8.043760e-02 -2.845979e-01
2.550000e+11 -1.143342e-01 -2.723134e-01 8.434635e-01 -3.998584e-01 8.434635e-01 -3.998584e-01 -8.233403e-02 -2.864669e-01
2.580000e+11 -1.161268e-01 -2.740163e-01 8.402318e-01 -4.042210e-01 8.402318e-01 -4.042210e-01 -8.424142e-02 -2.883257e-01
2.610000e+11 -1.179293e-01 -2.757101e-01 8.369786e-01 -4.085391e-01 8.369786e-01 -4.085391e-01 -8.615955e-02 -2.901739e-01
2.640000e+11 -1.197415e-01 -2.773946e-01 8.337044e-01 -4.128129e-01 8.337044e-01 -4.128129e-01 -8.808819e-02 -2.920110e-01
2.670000e+11 -1.215634e-01 -2.790692e-01 8.304098e-01 -4.170428e-01 8.304098e-01 -4.170428e-01 -9.002713e-02 -2.938367e-01
2.700000e+11 -1.233945e-01 -2.807337e-01 8.270954e-01 -4.212290e-01 8.270954e-01 -4.212290e-01 -9.197613e-02 -2.956508e-01
2.730000e+11 -1.252349e-01 -2.823878e-01 8.237615e-01 -4.253716e-01 8.237615e-01 -4.253716e-01 -9.393495e-02 -2.974528e-01
2.760000e+11 -1.270841e-01 -2.840310e-01 8.204087e-01 -4.294708e-01 8.204087e-01 -4.294708e-01 -9.590337e-02 -2.992425e-01
2.790000e+11 -1.289421e-01 -2.856633e-01 8.170376e-01 -4.335270e-01 8.170376e-01 -4.335270e-01 -9.788116e-02 -3.010197e-01
2.820000e+11 -1.308085e-01 -2.872842e-01 8.136485e-01 -4.375402e-01 8.136485e-01 -4.375402e-01 -9.986809e-02 -3.027839e-01
2.850000e+11 -1.326833e-01 -2.888935e-01 8.102420e-01 -4.415108e-01 8.102420e-01 -4.415108e-01 -1.018639e-01 -3.045351e-01
2.880000e+11 -1.345660e-01 -2.904910e-01 8.068186e-01 -4.454388e-01 8.068186e-01 -4.454388e-01 -1.038684e-01 -3.062728e-01
2.910000e+11 -1.364567e-01 -2.920764e-01 8.033787e-01 -4.493246e-01 8.033787e-01 -4.493246e-01 -1.058813e-01 -3.079970e-01
2.940000e+11 -1.383550e-01 -2.936496e-01 7.999229e-01 -4.531682e-01 7.999229e-01 -4.531682e-01 -1.079024e-01 -3.097074e-01
2.970000e+11 -1.402606e-01 -2.952102e-01 7.964516e-01 -4.569700e-01 7.964516e-01 -4.569700e-01 -1.099315e-01 -3.114038e-01
3.000000e+11 -1.421735e-01 -2.967581e-01 7.929652e-01 -4.607300e-01 7.929652e-01 -4.607300e-01 -1.119683e-01 -3.130859e-01
3.030000e+11 -1.440934e-01 -2.982931e-01 7.894644e-01 -4.644485e-01 7.894644e-01 -4.644485e-01 -1.140126e-01 -3.147537e-01
3.060000e+11 -1.460200e-01 -2.998151e-01 7.859494e-01 -4.681257e-01 7.859494e-01 -4.681257e-01 -1.160642e-01 -3.164070e-01
3.090000e+11 -1.479531e-01 -3.013238e-01 7.824208e-01 -4.717617e-01 7.824208e-01 -4.717617e-01 -1.181228e-01 -3.180455e-01
3.120000e+11 -1.498926e-01 -3.028191e-01 7.788790e-01 -4.753568e-01 7.788790e-01 -4.753568e-01 -1.201882e-01 -3.196692e-01
3.150000e+11 -1.518382e-01 -3.043009e-01 7.753245e-01 -4.789111e-01 7.753245e-01 -4.789111e-01 -1.222602e-01 -3.212779e-01
3.180000e+11 -1.537898e-01 -3.057691e-01 7.717578e-01 -4.824248e-01 7.717578e-01 -4.824248e-01 -1.243385e-01 -3.228715e-01
3.210000e+11 -1.557470e-01 -3.072234e-01 7.681792e-01 -4.858982e-01 7.681792e-01 -4.858982e-01 -1.264229e-01 -3.244498e-01
3.240000e+11 -1.577097e-01 -3.086638e-01 7.645892e-01 -4.893314e-01 7.645892e-01 -4.893314e-01 -1.285133e-01 -3.260128e-01
3.270000e+11 -1.596776e-01 -3.100902e-01 7.609883e-01 -4.927245e-01 7.609883e-01 -4.927245e-01 -1.306092e-01 -3.275603e-01
3.300000e+11 -1.616506e-01 -3.115024e-01 7.573769e-01 -4.960779e-01 7.573769e-01 -4.960779e-01 -1.327106e-01 -3.290922e-01
3.330000e+11 -1.636285e-01 -3.129005e-01 7.537553e-01 -4.993916e-01 7.537553e-01 -4.993916e-01 -1.348173e-01 -3.306086e-01
3.360000e+11 -1.656110e-01 -3.142842e-01 7.501241e-01 -5.026659e-01 7.501241e-01 -5.026659e-01 -1.369289e-01 -3.321091e-01
3.390000e+11 -1.675979e-01 -3.156535e-01 7.464836e-01 -5.059010e-01 7.464836e-01 -5.059010e-01 -1.390452e-01 -3.335939e-01
3.420000e+11 -1.695891e-01 -3.170083e-01 7.428343e-01 -5.090971e-01 7.428343e-01 -5.090971e-01 -1.411662e-01 -3.350629e-01
3.450000e+11 -1.715843e-01 -3.183486e-01 7.391766e-01 -5.122543e-01 7.391766e-01 -5.122543e-01 -1.432914e-01 -3.365159e-01
3.480000e+11 -1.735834e-01 -3.196744e-01 7.355108e-01 -5.153728e-01 7.355108e-01 -5.153728e-01 -1.454208e-01 -3.379529e-01
3.510000e+11 -1.755861e-01 -3.209854e-01 7.318375e-01 -5.184529e-01 7.318375e-01 -5.184529e-01 -1.475541e-01 -3.393739e-01
3.540000e+11 -1.775922e-01 -3.222818e-01 7.281569e-01 -5.214947e-01 7.281569e-01 -5.214947e-01 -1.496910e-01 -3.407788e-01
3.570000e+11 -1.796015e-01 -3.235634e-01 7.244694e-01 -5.244985e-01 7.244694e-01 -5.244985e-01 -1.518315e-01 -3.421676e-01
3.600000e+11 -1.816139e-01 -3.248303e-01 7.207756e-01 -5.274645e-01 7.207756e-01 -5.274645e-01 -1.539752e-01 -3.435404e-01
3.630000e+11 -1.836291e-01 -3.260823e-01 7.170756e-01 -5.303928e-01 7.170756e-01 -5.303928e-01 -1.561219e-01 -3.448969e-01
3.660000e+11 -1.856470e-01 -3.273195e-01 7.133700e-01 -5.332836e-01 7.133700e-01 -5.332836e-01 -1.582716e-01 -3.462373e-01
3.690000e+11 -1.876673e-01 -3.285419e-01 7.096591e-01 -5.361372e-01 7.096591e-01 -5.361372e-01 -1.604239e-01 -3.475615e-01
3.720000e+11 -1.896900e-01 -3.297494e-01 7.059433e-01 -5.389538e-01 7.059433e-01 -5.389538e-01 -1.625786e-01 -3.488695e-01
3.750000e+11 -1.917147e-01 -3.309420e-01 7.022229e-01 -5.417335e-01 7.022229e-01 -5.417335e-01 -1.647356e-01 -3.501613e-01
3.780000e+11 -1.937413e-01 -3.321197e-01 6.984982e-01 -5.444766e-01 6.984982e-01 -5.444766e-01 -1.668947e-01 -3.514369e-01
3.810000e+11 -1.957697e-01 -3.332826e-01 6.947698e-01 -5.471834e-01 6.947698e-01 -5.471834e-01 -1.690556e-01 -3.526964e-01
3.840000e+11 -1.977996e-01 -3.344305e-01 6.910378e-01 -5.498539e-01 6.910378e-01 -5.498539e-01 -1.712182e-01 -3.539396e-01
3.870000e+11 -1.998309e-01 -3.355636e-01 6.873027e-01 -5.524884e-01 6.873027e-01 -5.524884e-01 -1.733823e-01 -3.551667e-01
3.900000e+11 -2.018634e-01 -3.366818e-01 6.835648e-01 -5.550872e-01 6.835648e-01 -5.550872e-01 -1.755477e-01 -3.563777e-01
3.930000e+11 -2.038969e-01 -3.377852e-01 6.798244e-01 -5.576504e-01 6.798244e-01 -5.576504e-01 -1.777142e-01 -3.575725e-01
3.960000e+11 -2.059312e-01 -3.388737e-01 6.760818e-01 -5.601783e-01 6.760818e-01 -5.601783e-01 -1.798816e-01 -3.587512e-01
3.990000e+11 -2.079663e-01 -3.399474e-01 6.723375e-01 -5.626710e-01 6.723375e-01 -5.626710e-01 -1.820498e-01 -3.599139e-01
4.020000e+11 -2.100018e-01 -3.410063e-01 6.685917e-01 -5.651289e-01 6.685917e-01 -5.651289e-01 -1.842185e-01 -3.610605e-01
4.050000e+11 -2.120377e-01 -3.420505e-01 6.648448e-01 -5.675521e-01 6.648448e-01 -5.675521e-01 -1.863876e-01 -3.621912e-01
4.080000e+11 -2.140738e-01 -3.430799e-01 6.610970e-01 -5.699408e-01 6.610970e-01 -5.699408e-01 -1.885570e-01 -3.633059e-01
4.110000e+11 -2.161100e-01 -3.440947e-01 6.573486e-01 -5.722953e-01 6.573486e-01 -5.722953e-01 -1.907264e-01 -3.644046e-01
4.140000e+11 -2.181459e-01 -3.450948e-01 6.536001e-01 -5.746157e-01 6.536001e-01 -5.746157e-01 -1.928957e-01 -3.654875e-01
4.170000e+11 -2.201817e-01 -3.460803e-01 6.498516e-01 -5.769024e-01 6.498516e-01 -5.769024e-01 -1.950647e-01 -3.665546e-01
4.200000e+11 -2.222169e-01 -3.470512e-01 6.461036e-01 -5.791555e-01 6.461036e-01 -5.791555e-01 -1.972332e-01 -3.676059e-01
4.230000e+11 -2.242516e-01 -3.480076e-01 6.423561e-01 -5.813753e-01 6.423561e-01 -5.813753e-01 -1.994011e-01 -3.686415e-01
4.260000e+11 -2.262855e-01 -3.489495e-01 6.386097e-01 -5.835620e-01 6.386097e-01 -5.835620e-01 -2.015683e-01 -3.696615e-01
4.290000e+11 -2.283186e-01 -3.498770e-01 6.348645e-01 -5.857158e-01 6.348645e-01 -5.857158e-01 -2.037345e-01 -3.706659e-01
4.320000e+11 -2.303506e-01 -3.507901e-01 6.311208e-01 -5.878369e-01 6.311208e-01 -5.878369e-01 -2.058996e-01 -3.716547e-01
4.350000e+11 -2.323814e-01 -3.516890e-01 6.273789e-01 -5.899256e-01 6.273789e-01 -5.899256e-01 -2.080635e-01 -3.726281e-01
4.380000e+11 -2.344109e-01 -3.525736e-01 6.236391e-01 -5.919822e-01 6.236391e-01 -5.919822e-01 -2.102259e-01 -3.735860e-01
4.410000e+11 -2.364390e-01 -3.534440e-01 6.199017e-01 -5.940068e-01 6.199017e-01 -5.940068e-01 -2.123869e-01 -3.745287e-01
4.440000e+11 -2.384654e-01 -3.543002e-01 6.161668e-01 -5.959996e-01 6.161668e-01 -5.959996e-01 -2.145461e-01 -3.754561e-01
4.470000e+11 -2.404902e-01 -3.551424e-01 6.124348e-01 -5.979609e-01 6.124348e-01 -5.979609e-01 -2.167036e-01 -3.763683e-01
4.500000e+11 -2.425130e-01 -3.559706e-01 6.087059e-01 -5.998910e-01 6.087059e-01 -5.998910e-01 -2.188590e-01 -3.772654e-01
4.530000e+11 -2.445339e-01 -3.567849e-01 6.049804e-01 -6.017901e-01 6.049804e-01 -6.017901e-01 -2.210124e-01 -3.781474e-01
4.560000e+11 -2.465527e-01 -3.575854e-01 6.012585e-01 -6.036583e-01 6.012585e-01 -6.036583e-01 -2.231635e-01 -3.790145e-01
4.590000e+11 -2.485692e-01 -3.583720e-01 5.975404e-01 -6.054961e-01 5.975404e-01 -6.054961e-01 -2.253122e-01 -3.798668e-01
4.620000e+11 -2.505833e-01 -3.591450e-01 5.938264e-01 -6.073034e-01 5.938264e-01 -6.073034e-01 -2.274584e-01 -3.807042e-01
4.650000e+11 -2.525950e-01 -3.599043e-01 5.901167e-01 -6.090807e-01 5.901167e-01 -6.090807e-01 -2.296020e-01 -3.815270e-01
4.680000e+11 -2.546041e-01 -3.606500e-01 5.864116e-01 -6.108282e-01 5.864116e-01 -6.108282e-01 -2.317428e-01 -3.823351e-01
4.710000e+11 -2.566104e-01 -3.613823e-01 5.827112e-01 -6.125460e-01 5.827112e-01 -6.125460e-01 -2.338807e-01 -3.831287e-01
4.740000e+11 -2.586139e-01 -3.621012e-01 5.790159e-01 -6.142344e-01 5.790159e-01 -6.142344e-01 -2.360155e-01 -3.839078e-01
4.770000e+11 -2.606144e-01 -3.628068e-01 5.753257e-01 -6.158937e-01 5.753257e-01 -6.158937e-01 -2.381473e-01 -3.846726e-01
4.800000e+11 -2.626119e-01 -3.634991e-01 5.716409e-01 -6.175241e-01 5.716409e-01 -6.175241e-01 -2.402758e-01 -3.854232e-01
4.830000e+11 -2.646062e-01 -3.641783e-01 5.679618e-01 -6.191258e-01 5.679618e-01 -6.191258e-01 -2.424009e-01 -3.861595e-01
4.860000e+11 -2.665972e-01 -3.648444e-01 5.642885e-01 -6.206991e-01 5.642885e-01 -6.206991e-01 -2.445226e-01 -3.868818e-01
