#   Hz   S  RI   R   50
!
0.000000e+00 1.512001e-02 0.000000e+00 9.846676e-01 0.000000e+00 9.846676e-01 0.000000e+00 1.506903e-02 0.000000e+00
1.000000e+09 1.606603e-02 2.242767e-02 9.829211e-01 -3.189716e-02 9.829211e-01 -3.189716e-02 1.600079e-02 2.239052e-02
2.000000e+09 1.863215e-02 4.438763e-02 9.787733e-01 -6.221869e-02 9.787733e-01 -6.221869e-02 1.853343e-02 4.432693e-02
3.000000e+09 2.249180e-02 6.585493e-02 9.735026e-01 -9.119045e-02 9.735026e-01 -9.119045e-02 2.235133e-02 6.578249e-02
4.000000e+09 2.755687e-02 8.689574e-02 9.673796e-01 -1.193993e-01 9.673796e-01 -1.193993e-01 2.736868e-02 8.681849e-02
5.000000e+09 3.382205e-02 1.074967e-01 9.603051e-01 -1.470919e-01 9.603051e-01 -1.470919e-01 3.357936e-02 1.074196e-01
6.000000e+09 4.127501e-02 1.275958e-01 9.521803e-01 -1.742962e-01 9.521803e-01 -1.742962e-01 4.097020e-02 1.275237e-01
7.000000e+09 4.988306e-02 1.471171e-01 9.429647e-01 -2.009608e-01 9.429647e-01 -2.009608e-01 4.950821e-02 1.470555e-01
8.000000e+09 5.959751e-02 1.659859e-01 9.326631e-01 -2.270137e-01 9.326631e-01 -2.270137e-01 5.914477e-02 1.659411e-01
9.000000e+09 7.035889e-02 1.841344e-01 9.213088e-01 -2.523836e-01 9.213088e-01 -2.523836e-01 6.982072e-02 1.841133e-01
1.000000e+10 8.210075e-02 2.015030e-01 9.089523e-01 -2.770066e-01 9.089523e-01 -2.770066e-01 8.147012e-02 2.015133e-01
1.100000e+10 9.475249e-02 2.180414e-01 8.956539e-01 -3.008285e-01 8.956539e-01 -3.008285e-01 9.402293e-02 2.180914e-01
1.200000e+10 1.082413e-01 2.337078e-01 8.814798e-01 -3.238047e-01 8.814798e-01 -3.238047e-01 1.074069e-01 2.338063e-01
1.300000e+10 1.224936e-01 2.484688e-01 8.664988e-01 -3.458996e-01 8.664988e-01 -3.458996e-01 1.215493e-01 2.486250e-01
1.400000e+10 1.374363e-01 2.622986e-01 8.507806e-01 -3.670860e-01 8.507806e-01 -3.670860e-01 1.363777e-01 2.625223e-01
1.500000e+10 1.529979e-01 2.751784e-01 8.343943e-01 -3.873441e-01 8.343943e-01 -3.873441e-01 1.518210e-01 2.754795e-01
1.600000e+10 1.691085e-01 2.870956e-01 8.174075e-01 -4.066609e-01 8.174075e-01 -4.066609e-01 1.678103e-01 2.874843e-01
1.700000e+10 1.857009e-01 2.980431e-01 7.998856e-01 -4.250290e-01 7.998856e-01 -4.250290e-01 1.842789e-01 2.985298e-01
1.800000e+10 2.027106e-01 3.080186e-01 7.818915e-01 -4.424461e-01 7.818915e-01 -4.424461e-01 2.011630e-01 3.086139e-01
1.900000e+10 2.200760e-01 3.170239e-01 7.634853e-01 -4.589143e-01 7.634853e-01 -4.589143e-01 2.184018e-01 3.177385e-01
2.000000e+10 2.377387e-01 3.250645e-01 7.447239e-01 -4.744393e-01 7.447239e-01 -4.744393e-01 2.359372e-01 3.259091e-01
2.100000e+10 2.556432e-01 3.321489e-01 7.256613e-01 -4.890300e-01 7.256613e-01 -4.890300e-01 2.537146e-01 3.331343e-01
2.200000e+10 2.737370e-01 3.382881e-01 7.063486e-01 -5.026978e-01 7.063486e-01 -5.026978e-01 2.716821e-01 3.394251e-01
2.300000e+10 2.919708e-01 3.434956e-01 6.868338e-01 -5.154565e-01 6.868338e-01 -5.154565e-01 2.897906e-01 3.447949e-01
2.400000e+10 3.102978e-01 3.477863e-01 6.671620e-01 -5.273215e-01 6.671620e-01 -5.273215e-01 3.079942e-01 3.492588e-01
2.500000e+10 3.286740e-01 3.511771e-01 6.473759e-01 -5.383100e-01 6.473759e-01 -5.383100e-01 3.262494e-01 3.528334e-01
2.600000e+10 3.470581e-01 3.536859e-01 6.275152e-01 -5.484404e-01 6.275152e-01 -5.484404e-01 3.445154e-01 3.555368e-01
2.700000e+10 3.654113e-01 3.553320e-01 6.076174e-01 -5.577322e-01 6.076174e-01 -5.577322e-01 3.627537e-01 3.573879e-01
2.800000e+10 3.836969e-01 3.561355e-01 5.877175e-01 -5.662059e-01 5.877175e-01 -5.662059e-01 3.809283e-01 3.584068e-01
2.900000e+10 4.018807e-01 3.561171e-01 5.678484e-01 -5.738825e-01 5.678484e-01 -5.738825e-01 3.990055e-01 3.586142e-01
3.000000e+10 4.199305e-01 3.552984e-01 5.480408e-01 -5.807839e-01 5.480408e-01 -5.807839e-01 4.169534e-01 3.580315e-01
3.100000e+10 4.378162e-01 3.537016e-01 5.283231e-01 -5.869324e-01 5.283231e-01 -5.869324e-01 4.347424e-01 3.566807e-01
3.200000e+10 4.555096e-01 3.513490e-01 5.087223e-01 -5.923507e-01 5.087223e-01 -5.923507e-01 4.523447e-01 3.545841e-01
3.300000e+10 4.729844e-01 3.482636e-01 4.892629e-01 -5.970618e-01 4.892629e-01 -5.970618e-01 4.697344e-01 3.517645e-01
3.400000e+10 4.902160e-01 3.444684e-01 4.699681e-01 -6.010890e-01 4.699681e-01 -6.010890e-01 4.868875e-01 3.482447e-01
3.500000e+10 5.071816e-01 3.399869e-01 4.508593e-01 -6.044559e-01 4.508593e-01 -6.044559e-01 5.037814e-01 3.440479e-01
3.600000e+10 5.238600e-01 3.348424e-01 4.319559e-01 -6.071859e-01 4.319559e-01 -6.071859e-01 5.203954e-01 3.391974e-01
3.700000e+10 5.402318e-01 3.290584e-01 4.132762e-01 -6.093028e-01 4.132762e-01 -6.093028e-01 5.367103e-01 3.337166e-01
3.800000e+10 5.562787e-01 3.226584e-01 3.948365e-01 -6.108301e-01 3.948365e-01 -6.108301e-01 5.527084e-01 3.276286e-01
3.900000e+10 5.719842e-01 3.156659e-01 3.766520e-01 -6.117914e-01 3.766520e-01 -6.117914e-01 5.683734e-01 3.209568e-01
4.000000e+10 5.873331e-01 3.081041e-01 3.587363e-01 -6.122101e-01 3.587363e-01 -6.122101e-01 5.836905e-01 3.137242e-01
4.100000e+10 6.023117e-01 2.999963e-01 3.411017e-01 -6.121096e-01 3.411017e-01 -6.121096e-01 5.986462e-01 3.059539e-01
4.200000e+10 6.169072e-01 2.913653e-01 3.237589e-01 -6.115129e-01 3.237589e-01 -6.115129e-01 6.132282e-01 2.976685e-01
4.300000e+10 6.311085e-01 2.822337e-01 3.067179e-01 -6.104428e-01 3.067179e-01 -6.104428e-01 6.274257e-01 2.888905e-01
4.400000e+10 6.449053e-01 2.726241e-01 2.899869e-01 -6.089218e-01 2.899869e-01 -6.089218e-01 6.412287e-01 2.796420e-01
4.500000e+10 6.582887e-01 2.625583e-01 2.735732e-01 -6.069721e-01 2.735732e-01 -6.069721e-01 6.546286e-01 2.699449e-01
4.600000e+10 6.712508e-01 2.520580e-01 2.574831e-01 -6.046155e-01 2.574831e-01 -6.046155e-01 6.676177e-01 2.598205e-01
4.700000e+10 6.837846e-01 2.411444e-01 2.417216e-01 -6.018734e-01 2.417216e-01 -6.018734e-01 6.801894e-01 2.492899e-01
4.800000e+10 6.958841e-01 2.298382e-01 2.262929e-01 -5.987666e-01 2.262929e-01 -5.987666e-01 6.923381e-01 2.383735e-01
4.900000e+10 7.075443e-01 2.181598e-01 2.112000e-01 -5.953158e-01 2.112000e-01 -5.953158e-01 7.040590e-01 2.270914e-01
5.000000e+10 7.187610e-01 2.061288e-01 1.964452e-01 -5.915409e-01 1.964452e-01 -5.915409e-01 7.153481e-01 2.154633e-01
5.100000e+10 7.295307e-01 1.937646e-01 1.820298e-01 -5.874613e-01 1.820298e-01 -5.874613e-01 7.262023e-01 2.035081e-01
5.200000e+10 7.398506e-01 1.810859e-01 1.679545e-01 -5.830961e-01 1.679545e-01 -5.830961e-01 7.366191e-01 1.912442e-01
5.300000e+10 7.497188e-01 1.681109e-01 1.542189e-01 -5.784635e-01 1.542189e-01 -5.784635e-01 7.465968e-01 1.786898e-01
5.400000e+10 7.591339e-01 1.548571e-01 1.408222e-01 -5.735815e-01 1.408222e-01 -5.735815e-01 7.561343e-01 1.658621e-01
5.500000e+10 7.680950e-01 1.413416e-01 1.277627e-01 -5.684673e-01 1.277627e-01 -5.684673e-01 7.652311e-01 1.527779e-01
5.600000e+10 7.766018e-01 1.275809e-01 1.150381e-01 -5.631375e-01 1.150381e-01 -5.631375e-01 7.738871e-01 1.394535e-01
5.700000e+10 7.846544e-01 1.135907e-01 1.026457e-01 -5.576082e-01 1.026457e-01 -5.576082e-01 7.821027e-01 1.259046e-01
5.800000e+10 7.922535e-01 9.938655e-02 9.058213e-02 -5.518950e-01 9.058213e-02 -5.518950e-01 7.898789e-01 1.121461e-01
5.900000e+10 7.994000e-01 8.498302e-02 7.884344e-02 -5.460127e-01 7.884344e-02 -5.460127e-01 7.972169e-01 9.819251e-02
6.000000e+10 8.060952e-01 7.039429e-02 6.742534e-02 -5.399755e-01 6.742534e-02 -5.399755e-01 8.041182e-01 8.405782e-02
6.100000e+10 8.123406e-01 5.563396e-02 5.632307e-02 -5.337972e-01 5.632307e-02 -5.337972e-01 8.105847e-01 6.975532e-02
6.200000e+10 8.181380e-01 4.071505e-02 4.553149e-02 -5.274908e-01 4.553149e-02 -5.274908e-01 8.166186e-01 5.529778e-02
6.300000e+10 8.234895e-01 2.565006e-02 3.504511e-02 -5.210688e-01 3.504511e-02 -5.210688e-01 8.222222e-01 4.069742e-02
6.400000e+10 8.283972e-01 1.045093e-02 2.485811e-02 -5.145432e-01 2.485811e-02 -5.145432e-01 8.273979e-01 2.596594e-02
6.500000e+10 8.328634e-01 -4.870893e-03 1.496441e-02 -5.079251e-01 1.496441e-02 -5.079251e-01 8.321483e-01 1.111448e-02
6.600000e+10 8.368904e-01 -2.030447e-02 5.357643e-03 -5.012255e-01 5.357643e-03 -5.012255e-01 8.364762e-01 -3.846305e-03
6.700000e+10 8.404807e-01 -3.583934e-02 -3.968766e-03 -4.944544e-01 -3.968766e-03 -4.944544e-01 8.403843e-01 -1.890625e-02
6.800000e+10 8.436367e-01 -5.146553e-02 -1.302160e-02 -4.876214e-01 -1.302160e-02 -4.876214e-01 8.438754e-01 -3.405568e-02
6.900000e+10 8.463609e-01 -6.717346e-02 -2.180780e-02 -4.807356e-01 -2.180780e-02 -4.807356e-01 8.469521e-01 -4.928537e-02
7.000000e+10 8.486554e-01 -8.295403e-02 -3.033447e-02 -4.738056e-01 -3.033447e-02 -4.738056e-01 8.496174e-01 -6.458651e-02
7.100000e+10 8.505228e-01 -9.879849e-02 -3.860885e-02 -4.668392e-01 -3.860885e-02 -4.668392e-01 8.518737e-01 -7.995072e-02
7.200000e+10 8.519651e-01 -1.146985e-01 -4.663825e-02 -4.598440e-01 -4.663825e-02 -4.598440e-01 8.537238e-01 -9.537001e-02
7.300000e+10 8.529844e-01 -1.306460e-01 -5.443010e-02 -4.528268e-01 -5.443010e-02 -4.528268e-01 8.551699e-01 -1.108368e-01
7.400000e+10 8.535826e-01 -1.466334e-01 -6.199185e-02 -4.457942e-01 -6.199185e-02 -4.457942e-01 8.562145e-01 -1.263437e-01
7.500000e+10 8.537614e-01 -1.626532e-01 -6.933105e-02 -4.387521e-01 -6.933105e-02 -4.387521e-01 8.568595e-01 -1.418837e-01
7.600000e+10 8.535224e-01 -1.786984e-01 -7.645522e-02 -4.317060e-01 -7.645522e-02 -4.317060e-01 8.571071e-01 -1.574503e-01
7.700000e+10 8.528669e-01 -1.947620e-01 -8.337192e-02 -4.246607e-01 -8.337192e-02 -4.246607e-01 8.569589e-01 -1.730370e-01
7.800000e+10 8.517959e-01 -2.108374e-01 -9.008872e-02 -4.176210e-01 -9.008872e-02 -4.176210e-01 8.564164e-01 -1.886375e-01
7.900000e+10 8.503103e-01 -2.269180e-01 -9.661313e-02 -4.105909e-01 -9.661313e-02 -4.105909e-01 8.554808e-01 -2.042459e-01
8.000000e+10 8.484107e-01 -2.429975e-01 -1.029527e-01 -4.035739e-01 -1.029527e-01 -4.035739e-01 8.541533e-01 -2.198563e-01
8.100000e+10 8.460973e-01 -2.590697e-01 -1.091147e-01 -3.965734e-01 -1.091147e-01 -3.965734e-01 8.524344e-01 -2.354631e-01
8.200000e+10 8.433702e-01 -2.751283e-01 -1.151068e-01 -3.895921e-01 -1.151068e-01 -3.895921e-01 8.503247e-01 -2.510607e-01
8.300000e+10 8.402289e-01 -2.911672e-01 -1.209361e-01 -3.826323e-01 -1.209361e-01 -3.826323e-01 8.478242e-01 -2.666435e-01
8.400000e+10 8.366730e-01 -3.071803e-01 -1.266099e-01 -3.756962e-01 -1.266099e-01 -3.756962e-01 8.449329e-01 -2.822062e-01
8.500000e+10 8.327014e-01 -3.231614e-01 -1.321353e-01 -3.687851e-01 -1.321353e-01 -3.687851e-01 8.416502e-01 -2.977431e-01
8.600000e+10 8.283129e-01 -3.391043e-01 -1.375194e-01 -3.619003e-01 -1.375194e-01 -3.619003e-01 8.379753e-01 -3.132489e-01
8.700000e+10 8.235060e-01 -3.550025e-01 -1.427690e-01 -3.550426e-01 -1.427690e-01 -3.550426e-01 8.339072e-01 -3.287179e-01
8.800000e+10 8.182787e-01 -3.708496e-01 -1.478910e-01 -3.482124e-01 -1.478910e-01 -3.482124e-01 8.294444e-01 -3.441445e-01
8.900000e+10 8.126288e-01 -3.866389e-01 -1.528919e-01 -3.414097e-01 -1.528919e-01 -3.414097e-01 8.245851e-01 -3.595228e-01
9.000000e+10 8.065538e-01 -4.023634e-01 -1.577783e-01 -3.346343e-01 -1.577783e-01 -3.346343e-01 8.193272e-01 -3.748467e-01
9.100000e+10 8.000508e-01 -4.180158e-01 -1.625564e-01 -3.278854e-01 -1.625564e-01 -3.278854e-01 8.136683e-01 -3.901101e-01
9.200000e+10 7.931168e-01 -4.335885e-01 -1.672324e-01 -3.211620e-01 -1.672324e-01 -3.211620e-01 8.076056e-01 -4.053064e-01
9.300000e+10 7.857481e-01 -4.490737e-01 -1.718121e-01 -3.144627e-01 -1.718121e-01 -3.144627e-01 8.011362e-01 -4.204286e-01
9.400000e+10 7.779413e-01 -4.644628e-01 -1.763014e-01 -3.077859e-01 -1.763014e-01 -3.077859e-01 7.942567e-01 -4.354696e-01
9.500000e+10 7.696922e-01 -4.797471e-01 -1.807058e-01 -3.011295e-01 -1.807058e-01 -3.011295e-01 7.869636e-01 -4.504217e-01
9.600000e+10 7.609968e-01 -4.949171e-01 -1.850305e-01 -2.944910e-01 -1.850305e-01 -2.944910e-01 7.792529e-01 -4.652767e-01
9.700000e+10 7.518507e-01 -5.099629e-01 -1.892806e-01 -2.878679e-01 -1.892806e-01 -2.878679e-01 7.711207e-01 -4.800261e-01
9.800000e+10 7.422493e-01 -5.248738e-01 -1.934608e-01 -2.812570e-01 -1.934608e-01 -2.812570e-01 7.625627e-01 -4.946607e-01
9.900000e+10 7.321880e-01 -5.396386e-01 -1.975757e-01 -2.746551e-01 -1.975757e-01 -2.746551e-01 7.535744e-01 -5.091705e-01
1.000000e+11 7.216621e-01 -5.542452e-01 -2.016294e-01 -2.680585e-01 -2.016294e-01 -2.680585e-01 7.441512e-01 -5.235452e-01
1.010000e+11 7.106668e-01 -5.686807e-01 -2.056258e-01 -2.614633e-01 -2.056258e-01 -2.614633e-01 7.342886e-01 -5.377736e-01
1.020000e+11 6.991975e-01 -5.829317e-01 -2.095684e-01 -2.548654e-01 -2.095684e-01 -2.548654e-01 7.239819e-01 -5.518436e-01
1.030000e+11 6.872494e-01 -5.969834e-01 -2.134606e-01 -2.482602e-01 -2.134606e-01 -2.482602e-01 7.132263e-01 -5.657426e-01
1.040000e+11 6.748181e-01 -6.108205e-01 -2.173050e-01 -2.416431e-01 -2.173050e-01 -2.416431e-01 7.020174e-01 -5.794569e-01
1.050000e+11 6.618994e-01 -6.244265e-01 -2.211040e-01 -2.350089e-01 -2.211040e-01 -2.350089e-01 6.903507e-01 -5.929720e-01
1.060000e+11 6.484894e-01 -6.377840e-01 -2.248598e-01 -2.283527e-01 -2.248598e-01 -2.283527e-01 6.782221e-01 -6.062724e-01
1.070000e+11 6.345846e-01 -6.508744e-01 -2.285738e-01 -2.216688e-01 -2.285738e-01 -2.216688e-01 6.656275e-01 -6.193417e-01
1.080000e+11 6.201819e-01 -6.636782e-01 -2.322472e-01 -2.149517e-01 -2.322472e-01 -2.149517e-01 6.525636e-01 -6.321625e-01
1.090000e+11 6.052791e-01 -6.761745e-01 -2.358805e-01 -2.081956e-01 -2.358805e-01 -2.081956e-01 6.390273e-01 -6.447160e-01
1.100000e+11 5.898745e-01 -6.883417e-01 -2.394737e-01 -2.013946e-01 -2.394737e-01 -2.013946e-01 6.250163e-01 -6.569829e-01
1.110000e+11 5.739673e-01 -7.001567e-01 -2.430266e-01 -1.945427e-01 -2.430266e-01 -1.945427e-01 6.105289e-01 -6.689424e-01
1.120000e+11 5.575579e-01 -7.115954e-01 -2.465379e-01 -1.876336e-01 -2.465379e-01 -1.876336e-01 5.955642e-01 -6.805727e-01
1.130000e+11 5.406476e-01 -7.226325e-01 -2.500062e-01 -1.806612e-01 -2.500062e-01 -1.806612e-01 5.801225e-01 -6.918510e-01
1.140000e+11 5.232390e-01 -7.332418e-01 -2.534291e-01 -1.736194e-01 -2.534291e-01 -1.736194e-01 5.642048e-01 -7.027533e-01
1.150000e+11 5.053364e-01 -7.433957e-01 -2.568039e-01 -1.665018e-01 -2.568039e-01 -1.665018e-01 5.478138e-01 -7.132546e-01
1.160000e+11 4.869454e-01 -7.530659e-01 -2.601270e-01 -1.593025e-01 -2.601270e-01 -1.593025e-01 5.309534e-01 -7.233290e-01
1.170000e+11 4.680734e-01 -7.622231e-01 -2.633943e-01 -1.520155e-01 -2.633943e-01 -1.520155e-01 5.136289e-01 -7.329494e-01
1.180000e+11 4.487300e-01 -7.708369e-01 -2.666008e-01 -1.446350e-01 -2.666008e-01 -1.446350e-01 4.958475e-01 -7.420881e-01
1.190000e+11 4.289265e-01 -7.788765e-01 -2.697412e-01 -1.371555e-01 -2.697412e-01 -1.371555e-01 4.776182e-01 -7.507164e-01
1.200000e+11 4.086768e-01 -7.863104e-01 -2.728091e-01 -1.295717e-01 -2.728091e-01 -1.295717e-01 4.589521e-01 -7.588051e-01
1.210000e+11 3.879970e-01 -7.931066e-01 -2.757977e-01 -1.218788e-01 -2.757977e-01 -1.218788e-01 4.398623e-01 -7.663244e-01
1.220000e+11 3.669059e-01 -7.992329e-01 -2.786993e-01 -1.140724e-01 -2.786993e-01 -1.140724e-01 4.203643e-01 -7.732440e-01
1.230000e+11 3.454248e-01 -8.046569e-01 -2.815058e-01 -1.061485e-01 -2.815058e-01 -1.061485e-01 4.004762e-01 -7.795336e-01
1.240000e+11 3.235781e-01 -8.093467e-01 -2.842081e-01 -9.810392e-02 -2.842081e-01 -9.810392e-02 3.802184e-01 -7.851629e-01
1.250000e+11 3.013929e-01 -8.132705e-01 -2.867969e-01 -8.993599e-02 -2.867969e-01 -8.993599e-02 3.596143e-01 -7.901017e-01
1.260000e+11 2.788994e-01 -8.163974e-01 -2.892620e-01 -8.164280e-02 -2.892620e-01 -8.164280e-02 3.386899e-01 -7.943204e-01
1.270000e+11 2.561310e-01 -8.186975e-01 -2.915929e-01 -7.322329e-02 -2.915929e-01 -7.322329e-02 3.174742e-01 -7.977901e-01
1.280000e+11 2.331241e-01 -8.201422e-01 -2.937785e-01 -6.467727e-02 -2.937785e-01 -6.467727e-02 2.959988e-01 -8.004830e-01
1.290000e+11 2.099183e-01 -8.207046e-01 -2.958074e-01 -5.600553e-02 -2.958074e-01 -5.600553e-02 2.742986e-01 -8.023726e-01
1.300000e+11 1.865560e-01 -8.203597e-01 -2.976678e-01 -4.720987e-02 -2.976678e-01 -4.720987e-02 2.524112e-01 -8.034342e-01
1.310000e+11 1.630828e-01 -8.190852e-01 -2.993478e-01 -3.829320e-02 -2.993478e-01 -3.829320e-02 2.303770e-01 -8.036450e-01
1.320000e+11 1.395473e-01 -8.168613e-01 -3.008353e-01 -2.925956e-02 -3.008353e-01 -2.925956e-02 2.082394e-01 -8.029846e-01
1.330000e+11 1.160004e-01 -8.136713e-01 -3.021182e-01 -2.011414e-02 -3.021182e-01 -2.011414e-02 1.860440e-01 -8.014353e-01
1.340000e+11 9.249568e-02 -8.095021e-01 -3.031847e-01 -1.086337e-02 -3.031847e-01 -1.086337e-02 1.638392e-01 -7.989826e-01
1.350000e+11 6.908882e-02 -8.043443e-01 -3.040229e-01 -1.514882e-03 -3.040229e-01 -1.514882e-03 1.416753e-01 -7.956149e-01
1.360000e+11 4.583736e-02 -7.981928e-01 -3.046216e-01 7.922457e-03 -3.046216e-01 7.922457e-03 1.196045e-01 -7.913248e-01
1.370000e+11 2.280030e-02 -7.910466e-01 -3.049700e-01 1.743858e-02 -3.049700e-01 1.743858e-02 9.768084e-02 -7.861085e-01
1.380000e+11 3.769771e-05 -7.829095e-01 -3.050579e-01 2.702225e-02 -3.050579e-01 2.702225e-02 7.595929e-02 -7.799665e-01
1.390000e+11 -2.238979e-02 -7.737903e-01 -3.048758e-01 3.666109e-02 -3.048758e-01 3.666109e-02 5.449574e-02 -7.729036e-01
1.400000e+11 -4.442138e-02 -7.637026e-01 -3.044153e-01 4.634167e-02 -3.044153e-01 4.634167e-02 3.334642e-02 -7.649292e-01
1.410000e+11 -6.599671e-02 -7.526652e-01 -3.036690e-01 5.604958e-02 -3.036690e-01 5.604958e-02 1.256748e-02 -7.560575e-01
1.420000e+11 -8.705634e-02 -7.407017e-01 -3.026305e-01 6.576954e-02 -3.026305e-01 6.576954e-02 -7.785533e-03 -7.463072e-01
1.430000e+11 -1.075423e-01 -7.278412e-01 -3.012948e-01 7.548549e-02 -3.012948e-01 7.548549e-02 -2.765817e-02 -7.357017e-01
1.440000e+11 -1.273987e-01 -7.141176e-01 -2.996583e-01 8.518077e-02 -2.996583e-01 8.518077e-02 -4.699754e-02 -7.242691e-01
1.450000e+11 -1.465721e-01 -6.995693e-01 -2.977186e-01 9.483820e-02 -2.977186e-01 9.483820e-02 -6.575285e-02 -7.120421e-01
1.460000e+11 -1.650122e-01 -6.842395e-01 -2.954750e-01 1.044403e-01 -2.954750e-01 1.044403e-01 -8.387588e-02 -6.990574e-01
1.470000e+11 -1.826723e-01 -6.681756e-01 -2.929282e-01 1.139694e-01 -2.929282e-01 1.139694e-01 -1.013214e-01 -6.853560e-01
1.480000e+11 -1.995095e-01 -6.514288e-01 -2.900805e-01 1.234077e-01 -2.900805e-01 1.234077e-01 -1.180477e-01 -6.709825e-01
1.490000e+11 -2.154855e-01 -6.340535e-01 -2.869357e-01 1.327379e-01 -2.869357e-01 1.327379e-01 -1.340168e-01 -6.559847e-01
1.500000e+11 -2.305666e-01 -6.161074e-01 -2.834991e-01 1.419426e-01 -2.834991e-01 1.419426e-01 -1.491948e-01 -6.404135e-01
1.510000e+11 -2.447241e-01 -5.976501e-01 -2.797775e-01 1.510051e-01 -2.797775e-01 1.510051e-01 -1.635525e-01 -6.243221e-01
1.520000e+11 -2.579345e-01 -5.787436e-01 -2.757790e-01 1.599094e-01 -2.757790e-01 1.599094e-01 -1.770651e-01 -6.077659e-01
1.530000e+11 -2.701796e-01 -5.594508e-01 -2.715132e-01 1.686400e-01 -2.715132e-01 1.686400e-01 -1.897126e-01 -5.908016e-01
1.540000e+11 -2.814467e-01 -5.398354e-01 -2.669907e-01 1.771827e-01 -2.669907e-01 1.771827e-01 -2.014801e-01 -5.734867e-01
1.550000e+11 -2.917282e-01 -5.199615e-01 -2.622233e-01 1.855239e-01 -2.622233e-01 1.855239e-01 -2.123573e-01 -5.558795e-01
1.560000e+11 -3.010220e-01 -4.998926e-01 -2.572239e-01 1.936514e-01 -2.572239e-01 1.936514e-01 -2.223389e-01 -5.380378e-01
1.570000e+11 -3.093311e-01 -4.796913e-01 -2.520059e-01 2.015540e-01 -2.520059e-01 2.015540e-01 -2.314244e-01 -5.200193e-01
1.580000e+11 -3.166634e-01 -4.594189e-01 -2.465839e-01 2.092219e-01 -2.465839e-01 2.092219e-01 -2.396177e-01 -5.018804e-01
1.590000e+11 -3.230316e-01 -4.391347e-01 -2.409726e-01 2.166465e-01 -2.409726e-01 2.166465e-01 -2.469272e-01 -4.836759e-01
1.600000e+11 -3.284526e-01 -4.188958e-01 -2.351874e-01 2.238206e-01 -2.351874e-01 2.238206e-01 -2.533654e-01 -4.654591e-01
1.610000e+11 -3.329474e-01 -3.987567e-01 -2.292438e-01 2.307382e-01 -2.292438e-01 2.307382e-01 -2.589487e-01 -4.472810e-01
1.620000e+11 -3.365407e-01 -3.787689e-01 -2.231575e-01 2.373948e-01 -2.231575e-01 2.373948e-01 -2.636968e-01 -4.291898e-01
1.630000e+11 -3.392603e-01 -3.589807e-01 -2.169444e-01 2.437869e-01 -2.169444e-01 2.437869e-01 -2.676326e-01 -4.112314e-01
