#  GHZ S DB R 50.0
 1.00000000e-02 -3.647675899565e+01 +9.193060476780e-01 -1.312808541313e-01 -2.015229840869e-02 -1.312808718344e-01 -2.015229740165e-02 -3.647676500099e+01 +9.177724106344e-01
 2.00000000e-02 -3.647093163776e+01 +1.823713552149e+00 -1.313224154686e-01 -4.009274033252e-02 -1.313224187120e-01 -4.009274151927e-02 -3.647094993041e+01 +1.820655073488e+00
 1.00000000e+00 -3.113389113126e+01 +5.374101984283e+01 -1.503102302131e-01 -1.882711016808e+00 -1.503102302130e-01 -1.882711016808e+00 -3.113836395939e+01 +5.366801169446e+01
 2.00000000e+00 -2.641010493111e+01 +6.694745589478e+01 -1.749018566753e-01 -3.626820700766e+00 -1.749018566752e-01 -3.626820700767e+00 -2.644266656718e+01 +6.692043587250e+01
 3.00000000e+00 -2.319727783104e+01 +7.123691332337e+01 -1.982734410477e-01 -5.330608860022e+00 -1.982734410477e-01 -5.330608860022e+00 -2.322207371389e+01 +7.136587473403e+01
 4.00000000e+00 -2.082511162437e+01 +7.260034479094e+01 -2.230469540838e-01 -7.022167896754e+00 -2.230469540837e-01 -7.022167896753e+00 -2.083671638555e+01 +7.275063988225e+01
 5.00000000e+00 -1.896458465165e+01 +7.271713121182e+01 -2.508224418280e-01 -8.705778608494e+00 -2.508224418280e-01 -8.705778608494e+00 -1.897039478340e+01 +7.284987342104e+01
 6.00000000e+00 -1.744305090416e+01 +7.220903153128e+01 -2.822491267084e-01 -1.038073978261e+01 -2.822491267085e-01 -1.038073978261e+01 -1.744749529389e+01 +7.232846939536e+01
 7.00000000e+00 -1.616140115154e+01 +7.135204062792e+01 -3.175282908368e-01 -1.204566692302e+01 -3.175282908368e-01 -1.204566692302e+01 -1.616610807343e+01 +7.146849531388e+01
 8.00000000e+00 -1.505814281954e+01 +7.028594328417e+01 -3.566615487030e-01 -1.369933076925e+01 -3.566615487031e-01 -1.369933076925e+01 -1.506347935427e+01 +7.040691515799e+01
 9.00000000e+00 -1.409265902940e+01 +6.908870249384e+01 -3.995588171162e-01 -1.534078239967e+01 -3.995588171161e-01 -1.534078239967e+01 -1.409856981200e+01 +6.921849472804e+01
 1.00000000e+01 -1.323675624492e+01 +6.780698930836e+01 -4.460885826605e-01 -1.696933706524e+01 -4.460885826605e-01 -1.696933706524e+01 -1.324309775850e+01 +6.794784602209e+01
 1.10000000e+01 -1.247007457228e+01 +6.647024436076e+01 -4.961035162253e-01 -1.858452960614e+01 -4.961035162253e-01 -1.858452960614e+01 -1.247671954680e+01 +6.662330508514e+01
 1.20000000e+01 -1.177743458908e+01 +6.509778162816e+01 -5.494541138502e-01 -2.018606663371e+01 -5.494541138503e-01 -2.018606663371e+01 -1.178429039398e+01 +6.526364738907e+01
 1.30000000e+01 -1.114722015412e+01 +6.370265522116e+01 -6.059958097680e-01 -2.177378292566e+01 -6.059958097680e-01 -2.177378292566e+01 -1.115422198203e+01 +6.388167293477e+01
 1.40000000e+01 -1.057034741160e+01 +6.229389537803e+01 -6.655922816750e-01 -2.334760473763e+01 -6.655922816750e-01 -2.334760473763e+01 -1.057744877622e+01 +6.248628308568e+01
 1.50000000e+01 -1.003958189896e+01 +6.087786613754e+01 -7.281165098041e-01 -2.490752084031e+01 -7.281165098042e-01 -2.490752084031e+01 -1.004674872281e+01 +6.108376555924e+01
 1.60000000e+01 -9.549071208458e+00 +5.945912253527e+01 -7.934505780456e-01 -2.645356094394e+01 -7.934505780457e-01 -2.645356094394e+01 -9.556279141427e+00 +5.967862740206e+01
 1.70000000e+01 -9.094016089818e+00 +5.804096880039e+01 -8.614848474704e-01 -2.798578042167e+01 -8.614848474704e-01 -2.798578042167e+01 -9.101249020889e+00 +5.827414721162e+01
 1.80000000e+01 -8.670433357222e+00 +5.662583075954e+01 -9.321168756740e-01 -2.950424999168e+01 -9.321168756740e-01 -2.950424999168e+01 -8.677681858801e+00 +5.687274340178e+01
 1.90000000e+01 -8.274981406900e+00 +5.521550900533e+01 -1.005250288140e+00 -3.100904915788e+01 -1.005250288140e+00 -3.100904915788e+01 -8.282240962011e+00 +5.547622139184e+01
 2.00000000e+01 -7.904829501836e+00 +5.381135352422e+01 -1.080793715243e+00 -3.250026245070e+01 -1.080793715243e+00 -3.250026245070e+01 -7.912098822321e+00 +5.408594223386e+01
 2.10000000e+01 -7.557558321412e+00 +5.241438551890e+01 -1.158659857052e+00 -3.397797769481e+01 -1.158659857052e+00 -3.397797769481e+01 -7.564838003732e+00 +5.270294012281e+01
 2.20000000e+01 -7.231083272589e+00 +5.102538316584e+01 -1.238764704127e+00 -3.544228566851e+01 -1.238764704127e+00 -3.544228566851e+01 -7.238374852011e+00 +5.132800578435e+01
 2.30000000e+01 -6.923594648493e+00 +4.964494244756e+01 -1.321026918630e+00 -3.689328064453e+01 -1.321026918630e+00 -3.689328064453e+01 -6.930899994507e+00 +4.996174634647e+01
 2.40000000e+01 -6.633510438583e+00 +4.827352060423e+01 -1.405367364711e+00 -3.833106142280e+01 -1.405367364711e+00 -3.833106142280e+01 -6.640831398610e+00 +4.860462862014e+01
 2.50000000e+01 -6.359438760895e+00 +4.691146738482e+01 -1.491708769043e+00 -3.975573257376e+01 -1.491708769043e+00 -3.975573257377e+01 -6.366776967734e+00 +4.725701053210e+01
 2.60000000e+01 -6.100147694837e+00 +4.555904769061e+01 -1.579975489327e+00 -4.116740570043e+01 -1.579975489327e+00 -4.116740570043e+01 -6.107504475068e+00 +4.591916406037e+01
 2.70000000e+01 -5.854540863012e+00 +4.421645812365e+01 -1.670093368752e+00 -4.256620059639e+01 -1.670093368752e+00 -4.256620059639e+01 -5.861917204485e+00 +4.459129207226e+01
 2.80000000e+01 -5.621637519393e+00 +4.288383920601e+01 -1.761989656222e+00 -4.395224622842e+01 -1.761989656222e+00 -4.395224622842e+01 -5.629034071548e+00 +4.327354078982e+01
 2.90000000e+01 -5.400556198651e+00 +4.156128451734e+01 -1.855592974797e+00 -4.532568150842e+01 -1.855592974797e+00 -4.532568150842e+01 -5.407973289925e+00 +4.196600912164e+01
 3.00000000e+01 -5.190501200787e+00 +4.024884763320e+01 -1.950833323609e+00 -4.668665584483e+01 -1.950833323609e+00 -4.668665584483e+01 -5.197938863948e+00 +4.066875574944e+01
 3.10000000e+01 -4.990751348755e+00 +3.894654749032e+01 -2.047642101249e+00 -4.803532947964e+01 -2.047642101249e+00 -4.803532947964e+01 -4.998209349008e+00 +3.938180460420e+01
 3.20000000e+01 -4.800650580107e+00 +3.765437262282e+01 -2.145952141079e+00 -4.937187362779e+01 -2.145952141079e+00 -4.937187362779e+01 -4.808128443152e+00 +3.810514918493e+01
 3.30000000e+01 -4.619600027409e+00 +3.637228458417e+01 -2.245697751084e+00 -5.069647044098e+01 -2.245697751084e+00 -5.069647044098e+01 -4.627097065981e+00 +3.683875604226e+01
 3.40000000e+01 -4.447051314185e+00 +3.510022077800e+01 -2.346814752675e+00 -5.200931282111e+01 -2.346814752675e+00 -5.200931282111e+01 -4.454566652351e+00 +3.558256765551e+01
 3.50000000e+01 -4.282500848727e+00 +3.383809685526e+01 -2.449240514369e+00 -5.331060410876e+01 -2.449240514369e+00 -5.331060410876e+01 -4.290033443662e+00 +3.433650486492e+01
 3.60000000e+01 -4.125484941434e+00 +3.258580878882e+01 -2.552913977481e+00 -5.460055767144e+01 -2.552913977481e+00 -5.460055767144e+01 -4.133033602609e+00 +3.310046897328e+01
 3.70000000e+01 -3.975575605310e+00 +3.134323470351e+01 -2.657775671955e+00 -5.587939641471e+01 -2.657775671955e+00 -5.587939641471e+01 -3.983139011129e+00 +3.187434359692e+01
 3.80000000e+01 -3.832376925946e+00 +3.011023651617e+01 -2.763767721182e+00 -5.714735223696e+01 -2.763767721182e+00 -5.714735223696e+01 -3.839953637981e+00 +3.065799632231e+01
 3.90000000e+01 -3.695521908601e+00 +2.888666142392e+01 -2.870833835274e+00 -5.840466544658e+01 -2.870833835274e+00 -5.840466544658e+01 -3.703110383542e+00 +2.945128020747e+01
 4.00000000e+01 -3.564669726831e+00 +2.767234326692e+01 -2.978919292690e+00 -5.965158415732e+01 -2.978919292690e+00 -5.965158415733e+01 -3.572268326337e+00 +2.825403515544e+01
 4.10000000e+01 -3.439503310703e+00 +2.646710378436e+01 -3.087970910407e+00 -6.088836367584e+01 -3.087970910407e+00 -6.088836367584e+01 -3.447110309311e+00 +2.706608917904e+01
 4.20000000e+01 -3.319727223491e+00 +2.527075377639e+01 -3.197937003089e+00 -6.211526589272e+01 -3.197937003089e+00 -6.211526589272e+01 -3.327340814753e+00 +2.588725957020e+01
 4.30000000e+01 -3.205065784569e+00 +2.408309418129e+01 -3.308767331821e+00 -6.333255868667e+01 -3.308767331821e+00 -6.333255868667e+01 -3.212684085572e+00 +2.471735398343e+01
 4.40000000e+01 -3.095261403334e+00 +2.290391707440e+01 -3.420413043069e+00 -6.454051534926e+01 -3.420413043069e+00 -6.454051534926e+01 -3.102882457771e+00 +2.355617144048e+01
 4.50000000e+01 -2.990073094823e+00 +2.173300659391e+01 -3.532826598595e+00 -6.573941403649e+01 -3.532826598595e+00 -6.573941403649e+01 -2.997694874747e+00 +2.240350326125e+01
 4.60000000e+01 -2.889275152436e+00 +2.057013979734e+01 -3.645961697010e+00 -6.692953725174e+01 -3.645961697010e+00 -6.692953725174e+01 -2.896895558844e+00 +2.125913392529e+01
 4.70000000e+01 -2.792655957074e+00 +1.941508745200e+01 -3.759773187693e+00 -6.811117136353e+01 -3.759773187693e+00 -6.811117136353e+01 -2.800272819439e+00 +2.012284186711e+01
 4.80000000e+01 -2.700016905221e+00 +1.826761476242e+01 -3.874216977705e+00 -6.928460616048e+01 -3.874216977705e+00 -6.928460616048e+01 -2.707627980080e+00 +1.899440020862e+01
 4.90000000e+01 -2.611171441153e+00 +1.712748203724e+01 -3.989249932336e+00 -7.045013444518e+01 -3.989249932336e+00 -7.045013444518e+01 -2.618774409859e+00 +1.787357743118e+01
 5.00000000e+01 -2.525944180655e+00 +1.599444529823e+01 -4.104829769824e+00 -7.160805166771e+01 -4.104829769824e+00 -7.160805166771e+01 -2.533536646374e+00 +1.676013799019e+01
 5.10000000e+01 -2.444170115473e+00 +1.486825683401e+01 -4.220914950749e+00 -7.275865559913e+01 -4.220914950749e+00 -7.275865559913e+01 -2.451749599503e+00 +1.565384287456e+01
 5.20000000e+01 -2.365693889262e+00 +1.374866570072e+01 -4.337464562536e+00 -7.390224604477e+01 -4.337464562536e+00 -7.390224604477e+01 -2.373257826732e+00 +1.455445011381e+01
 5.30000000e+01 -2.290369137057e+00 +1.263541817234e+01 -4.454438199440e+00 -7.503912459687e+01 -4.454438199440e+00 -7.503912459687e+01 -2.297914872067e+00 +1.346171523516e+01
 5.40000000e+01 -2.218057881400e+00 +1.152825814297e+01 -4.571795838337e+00 -7.616959442550e+01 -4.571795838337e+00 -7.616959442550e+01 -2.225582661637e+00 +1.237539167315e+01
 5.50000000e+01 -2.148629979161e+00 +1.042692748354e+01 -4.689497710565e+00 -7.729396010698e+01 -4.689497710565e+00 -7.729396010698e+01 -2.156130950030e+00 +1.129523113429e+01
 5.60000000e+01 -2.081962613853e+00 +9.331166355275e+00 -4.807504170043e+00 -7.841252748835e+01 -4.807504170043e+00 -7.841252748835e+01 -2.089436812144e+00 +1.022098391904e+01
 5.70000000e+01 -2.017939828929e+00 +8.240713482405e+00 -4.925775557806e+00 -7.952560358672e+01 -4.925775557806e+00 -7.952560358672e+01 -2.025384176042e+00 +9.152399203591e+00
 5.80000000e+01 -1.956452098067e+00 +7.155306386183e+00 -5.044272063099e+00 -8.063349652197e+01 -5.044272063099e+00 -8.063349652197e+01 -1.963863392808e+00 +8.089225283694e+00
 5.90000000e+01 -1.897395928977e+00 +6.074681582583e+00 -5.162953581082e+00 -8.173651548138e+01 -5.162953581082e+00 -8.173651548138e+01 -1.904770839928e+00 +7.031209782744e+00
 6.00000000e+01 -1.840673497649e+00 +4.998574745709e+00 -5.281779567219e+00 -8.283497071467e+01 -5.281779567219e+00 -8.283497071467e+01 -1.848008555115e+00 +5.978099826264e+00
 6.10000000e+01 -1.786192310312e+00 +3.926720838967e+00 -5.400708888342e+00 -8.392917355810e+01 -5.400708888342e+00 -8.392917355810e+01 -1.793483897847e+00 +4.929642184845e+00
 6.20000000e+01 -1.733864890715e+00 +2.858854215922e+00 -5.519699670414e+00 -8.501943648587e+01 -5.519699670414e+00 -8.501943648587e+01 -1.741109236210e+00 +3.885583387476e+00
 6.30000000e+01 -1.683608490570e+00 +1.794708692661e+00 -5.638709142951e+00 -8.610607318762e+01 -5.638709142951e+00 -8.610607318762e+01 -1.690801656907e+00 +2.845669807102e+00
 6.40000000e+01 -1.635344821260e+00 +7.340175933736e-01 -5.757693480081e+00 -8.718939867049e+01 -5.757693480080e+00 -8.718939867049e+01 -1.642482696508e+00 +1.809647720162e+00
 6.50000000e+01 -1.588999805103e+00 -3.234862292389e-01 -5.876607638200e+00 -8.826972938424e+01 -5.876607638200e+00 -8.826972938424e+01 -1.596078092240e+00 +7.772633417271e-01
 6.60000000e+01 -1.544503344654e+00 -1.378070397231e+00 -5.995405190207e+00 -8.934738336818e+01 -5.995405190207e+00 -8.934738336818e+01 -1.551517550805e+00 -2.517371622399e-01
 6.70000000e+01 -1.501789108667e+00 -2.430003032977e+00 -6.114038156263e+00 -9.042268041850e+01 -6.114038156263e+00 -9.042268041850e+01 -1.508734533826e+00 -1.277607684071e+00
 6.80000000e+01 -1.460794333507e+00 -3.479552805745e+00 -6.232456831099e+00 -9.149594227453e+01 -6.232456831099e+00 -9.149594227453e+01 -1.467666058725e+00 -2.300602203729e+00
 6.90000000e+01 -1.421459638898e+00 -4.526988998115e+00 -6.350609607856e+00 -9.256749282279e+01 -6.350609607856e+00 -9.256749282280e+01 -1.428252513907e+00 -3.320974837076e+00
 7.00000000e+01 -1.383728857020e+00 -5.572581591166e+00 -6.468442798519e+00 -9.363765831733e+01 -6.468442798519e+00 -9.363765831733e+01 -1.390437487268e+00 -4.338979901967e+00
 7.10000000e+01 -1.347548874070e+00 -6.616601367469e+00 -6.585900451014e+00 -9.470676761501e+01 -6.585900451014e+00 -9.470676761501e+01 -1.354167607126e+00 -5.354872001152e+00
 7.20000000e+01 -1.312869483478e+00 -7.659320031005e+00 -6.702924163107e+00 -9.577515242450e+01 -6.702924163107e+00 -9.577515242450e+01 -1.319392394781e+00 -6.368906121070e+00
 7.30000000e+01 -1.279643250057e+00 -8.701010343231e+00 -6.819452893270e+00 -9.684314756738e+01 -6.819452893270e+00 -9.684314756738e+01 -1.286064127972e+00 -7.381337745697e+00
 7.40000000e+01 -1.247825384453e+00 -9.741946274595e+00 -6.935422768795e+00 -9.791109124997e+01 -6.935422768795e+00 -9.791109124997e+01 -1.254137714579e+00 -8.392422984703e+00
 7.50000000e+01 -1.217373627297e+00 -1.078240317089e+01 -7.050766891450e+00 -9.897932534443e+01 -7.050766891450e+00 -9.897932534443e+01 -1.223570576003e+00 -9.402418715240e+00
 7.60000000e+01 -1.188248142558e+00 -1.182265793392e+01 -7.165415141120e+00 -1.000481956773e+02 -7.165415141120e+00 -1.000481956773e+02 -1.194322539680e+00 -1.041158273677e+01
 7.70000000e+01 -1.160411419619e+00 -1.286298921600e+01 -7.279293977935e+00 -1.011180523243e+02 -7.279293977935e+00 -1.011180523243e+02 -1.166355740288e+00 -1.142017393842e+01
 7.80000000e+01 -1.133828183691e+00 -1.390367762790e+01 -7.392326243521e+00 -1.021892499083e+02 -7.392326243521e+00 -1.021892499083e+02 -1.139634529214e+00 -1.242845247831e+01
 7.90000000e+01 -1.108465314181e+00 -1.494500595993e+01 -7.504430962135e+00 -1.032621479008e+02 -7.504430962135e+00 -1.032621479008e+02 -1.114125391936e+00 -1.343667997464e+01
 8.00000000e+01 -1.084291770720e+00 -1.598725941582e+01 -7.615523142572e+00 -1.043371109219e+02 -7.615523142572e+00 -1.043371109219e+02 -1.089796872984e+00 -1.444511970790e+01
 8.10000000e+01 -1.061278526573e+00 -1.703072585930e+01 -7.725513581912e+00 -1.054145090393e+02 -7.725513581912e+00 -1.054145090393e+02 -1.066619508234e+00 -1.545403683417e+01
 8.20000000e+01 -1.039398509216e+00 -1.807569607303e+01 -7.834308672321e+00 -1.064947180617e+02 -7.834308672321e+00 -1.064947180617e+02 -1.044565764271e+00 -1.646369860904e+01
 8.30000000e+01 -1.018626547873e+00 -1.912246402987e+01 -7.941810212331e+00 -1.075781198259e+02 -7.941810212331e+00 -1.075781198259e+02 -1.023609984655e+00 -1.747437462201e+01
 8.40000000e+01 -9.989393278956e-01 -2.017132717639e+01 -8.047915224200e+00 -1.086651024729e+02 -8.047915224200e+00 -1.086651024729e+02 -1.003728342930e+00 -1.848633704106e+01
 8.50000000e+01 -9.803153518486e-01 -2.122258672836e+01 -8.152515779190e+00 -1.097560607123e+02 -8.152515779190e+00 -1.097560607123e+02 -9.848988022504e-01 -1.949986086736e+01
 8.60000000e+01 -9.627349072447e-01 -2.227654797844e+01 -8.255498832828e+00 -1.108513960692e+02 -8.255498832828e+00 -1.108513960692e+02 -9.671010815570e-01 -2.051522419970e+01
 8.70000000e+01 -9.461800408922e-01 -2.333352061572e+01 -8.356746072446e+00 -1.119515171133e+02 -8.356746072446e+00 -1.119515171133e+02 -9.503166282574e-01 -2.153270850871e+01
 8.80000000e+01 -9.306345398526e-01 -2.439381905727e+01 -8.456133779578e+00 -1.130568396644e+02 -8.456133779578e+00 -1.130568396644e+02 -9.345285974005e-01 -2.255259892035e+01
 8.90000000e+01 -9.160839190500e-01 -2.545776279149e+01 -8.553532710026e+00 -1.141677869712e+02 -8.553532710026e+00 -1.141677869712e+02 -9.197218373756e-01 -2.357518450884e+01
 9.00000000e+01 -9.025154156076e-01 -2.652567673331e+01 -8.648807994705e+00 -1.152847898618e+02 -8.648807994705e+00 -1.152847898618e+02 -9.058828822041e-01 -2.460075859841e+01
 9.10000000e+01 -8.899179900230e-01 -2.759789159091e+01 -8.741819064645e+00 -1.164082868588e+02 -8.741819064645e+00 -1.164082868588e+02 -8.929999505208e-01 -2.562961907381e+01
 9.20000000e+01 -8.782823343343e-01 -2.867474424401e+01 -8.832419603787e+00 -1.175387242581e+02 -8.832419603787e+00 -1.175387242581e+02 -8.810629513878e-01 -2.666206869914e+01
 9.30000000e+01 -8.676008874682e-01 -2.975657813336e+01 -8.920457533491e+00 -1.186765561675e+02 -8.920457533491e+00 -1.186765561675e+02 -8.700634971176e-01 -2.769841544450e+01
 9.40000000e+01 -8.578678580004e-01 -3.084374366110e+01 -9.005775032928e+00 -1.198222444997e+02 -9.005775032928e+00 -1.198222444997e+02 -8.599949233184e-01 -2.873897282014e+01
 9.50000000e+01 -8.490792546000e-01 -3.193659860169e+01 -9.088208599735e+00 -1.209762589195e+02 -9.088208599736e+00 -1.209762589195e+02 -8.508523164233e-01 -2.978406021712e+01
 9.60000000e+01 -8.412329244745e-01 -3.303550852266e+01 -9.167589155538e+00 -1.221390767402e+02 -9.167589155538e+00 -1.221390767402e+02 -8.426325489969e-01 -3.083400325408e+01
 9.70000000e+01 -8.343286001749e-01 -3.414084721475e+01 -9.243742201078e+00 -1.233111827682e+02 -9.243742201079e+00 -1.233111827682e+02 -8.353343231616e-01 -3.188913412881e+01
 9.80000000e+01 -8.283679551656e-01 -3.525299713026e+01 -9.316488025815e+00 -1.244930690938e+02 -9.316488025814e+00 -1.244930690938e+02 -8.289582225281e-01 -3.294979197368e+01
 9.90000000e+01 -8.233546686140e-01 -3.637234982878e+01 -9.385641976889e+00 -1.256852348273e+02 -9.385641976889e+00 -1.256852348273e+02 -8.235067730605e-01 -3.401632321349e+01
 1.00000000e+02 -8.192944999009e-01 -3.749930642884e+01 -9.451014792320e+00 -1.268881857815e+02 -9.451014792320e+00 -1.268881857815e+02 -8.189845133524e-01 -3.508908192401e+01
